"Freq [GHz]","re(Z(1,1)) [] - roateAngle='0deg'","re(Z(1,1)) [] - roateAngle='15deg'","re(Z(1,1)) [] - roateAngle='30deg'","re(Z(1,1)) [] - roateAngle='45deg'","re(Z(1,1)) [] - roateAngle='60deg'","re(Z(1,1)) [] - roateAngle='75deg'","im(Z(1,1)) [] - roateAngle='0deg'","im(Z(1,1)) [] - roateAngle='15deg'","im(Z(1,1)) [] - roateAngle='30deg'","im(Z(1,1)) [] - roateAngle='45deg'","im(Z(1,1)) [] - roateAngle='60deg'","im(Z(1,1)) [] - roateAngle='75deg'"
0.9,1.07594175776863,1.29562974882986,2.17530745306639,2.84033139848377,3.39349473873767,3.53021368439349,75.9265553070676,75.8784983290736,77.5750773751861,79.1506327217764,81.0978099885467,82.1704806124495
0.900222222222222,1.07551563299846,1.2949971367352,2.17362598304804,2.83821583488707,3.39126311207241,3.52818131594333,75.9565447685419,75.9102555310304,77.6065026808379,79.1794240447022,81.1255559782373,82.1972413702895
0.900444444444444,1.07509102834317,1.29436708434117,2.17195096072114,2.8361077791464,3.389039027243,3.5261555837783,75.9865219575472,75.9419938876796,77.63791079843,79.2082060289593,81.1532971663011,82.2240000489146
0.900666666666667,1.07466793935413,1.29373958128364,2.17028235714908,2.83400720103078,3.38682245731429,3.52413646678898,76.0164869232713,75.9737134812194,77.6693018036705,79.2369787132368,81.1810335723591,82.2507566576638
0.900888888888889,1.07424636160108,1.29311461725815,2.16862014356912,2.83191407047079,3.38461337547927,3.52212394395557,76.0464397146898,76.0054143934331,77.7006757718889,79.2657421360624,81.2087652159715,82.2775112058615
0.901111111111111,1.07382629067216,1.29249218201965,2.16696429139135,2.82982835755767,3.38241175505849,3.52011799434759,76.0763803805675,76.0370967056918,77.7320327780379,79.294496335803,81.2364921166377,82.3042637028175
0.901333333333333,1.07340772217369,1.29187226538198,2.16531477219722,2.8277500325422,3.3802175694992,3.51811859712333,76.1063089694593,76.0687604989569,77.7633728966964,79.3232413506657,81.264214293797,82.3310141578268
0.901555555555556,1.07299065173015,1.29125485721743,2.16367155773833,2.82567906583365,3.37803079237462,3.51612573152941,76.1362255297116,76.1004058537832,77.7946962020712,79.3519772186983,81.2919317668281,82.3577625801696
0.901777777777778,1.07257507498408,1.29063994745635,2.16203461993523,2.82361542799874,3.37585139738327,3.51413937690029,76.166130109463,76.1320328503208,77.8260027680002,79.3807039777908,81.31964455505,82.3845089791114
0.902,1.07216098759594,1.29002752608674,2.16040393087606,2.82155908976063,3.37367935834817,3.51215951265789,76.1960227566464,76.1636415683184,77.8572926679541,79.4094216656755,81.347352677722,82.4112533639029
0.902222222222222,1.0717483852441,1.28941758315381,2.15877946281546,2.8195100219979,3.37151464921617,3.51018611831107,76.225903518989,76.1952320871251,77.8885659750388,79.4381303199283,81.3750561540436,82.43799574378
0.902444444444444,1.07133726362469,1.28881010875961,2.15716118817321,2.81746819574354,3.36935724405723,3.50821917345524,76.2557724440143,76.2268044856937,77.9198227619979,79.4668299779695,81.4027550031552,82.4647361279638
0.902666666666667,1.07092761845153,1.28820509306256,2.15554907953311,2.81543358218391,3.36720711706368,3.50625865777187,76.2856295790427,76.2583588425826,77.951063101215,79.4955206770643,81.4304492441382,82.4914745256606
0.902888888888889,1.07051944545604,1.28760252627714,2.15394310964177,2.81340615265782,3.36506424254953,3.50430455102809,76.3154749711928,76.2898952359588,77.9822870647156,79.5242024543242,81.4581388960149,82.5182109460619
0.903111111111111,1.07011274038717,1.28700239867339,2.15234325140738,2.81138587865546,3.36292859494977,3.50235683307622,76.3453086673827,76.3214137435999,78.0134947241699,79.5528753467071,81.4858239777491,82.5449453983442
0.903333333333333,1.06970749901129,1.28640470057658,2.15074947789855,2.80937273181746,3.36080014881969,3.50041548385335,76.3751307143308,76.3529144428971,78.0446861508947,79.5815393910186,81.5135045082463,82.5716778916693
0.903555555555556,1.0693037171121,1.28580942236682,2.14916176234314,2.80736668393392,3.35867887883414,3.49848048338092,76.404941158557,76.3843974108571,78.0758614158554,79.6101946239126,81.5411805063535,82.598408435184
0.903777777777778,1.06890139049057,1.28521655447863,2.14758007812712,2.80536770694343,3.3565647597869,3.49655181176424,76.4347400463838,76.415862724105,78.1070205896689,79.6388410818923,81.56885199086,82.6251370380201
0.904,1.06850051496484,1.28462608740057,2.14600439879338,2.80337577293212,3.35445776658994,3.49462944919213,76.4645274239375,76.4473104588862,78.138163742605,79.6674788013107,81.5965189804971,82.6518637092949
0.904222222222222,1.06810108637011,1.28403801167488,2.14443469804062,2.80139085413269,3.35235787427281,3.49271337593643,76.4943033371491,76.4787406910696,78.1692909445891,79.6961078183717,81.6241814939387,82.6785884581103
0.904444444444444,1.06770310055861,1.28345231789708,2.14287094972223,2.79941292292349,3.35026505798189,3.49080357235164,76.5240678317554,76.5101534961488,78.2004022652042,79.7247281691305,81.6518395498012,82.7053112935537
0.904666666666667,1.06730655339946,1.2828689967156,2.14131312784511,2.79744195182759,3.34817929297978,3.48890001887444,76.5538209533,76.5415489492457,78.2314977736929,79.7533398894948,81.6794931666441,82.7320322246973
0.904888888888889,1.06691144077864,1.28228803883139,2.13976120656864,2.7954779135118,3.34610055464461,3.48700269602332,76.5835627471345,76.5729271251119,78.2625775389598,79.7819430152252,81.7071423629699,82.7587512605984
0.905111111111111,1.06651775859884,1.28170943499756,2.13821516020349,2.79352078078579,3.34402881846935,3.48511158439809,76.6132932584198,76.6042880981315,78.2936416295733,79.8105375819364,81.7347871572243,82.7854684102995
0.905333333333333,1.06612550277946,1.28113317601909,2.13667496321066,2.79157052660121,3.34196406006127,3.48322666467964,76.6430125321263,76.6356319423233,78.3246901137679,79.8391236250973,81.7624275677966,82.8121836828279
0.905555555555556,1.06573466925646,1.2805592527523,2.13514059020024,2.78962712405069,3.33990625514114,3.4813479176293,76.6727206130357,76.6669587313429,78.3557230594462,79.8677011800326,81.7900636130198,82.838897087196
0.905777777777778,1.06534525398229,1.27998765610465,2.13361201593044,2.78769054636698,3.33785537954265,3.47947532408858,76.702417545742,76.6982685384854,78.386740534181,79.8962702819229,81.8176953111708,82.8656086324015
0.906,1.06495725292584,1.27941837703428,2.13208921530648,2.78576076692208,3.3358114092118,3.47760886497874,76.7321033746518,76.7295614366872,78.4177426052173,79.9248309658055,81.8453226804709,82.8923183274268
0.906222222222222,1.06457066207233,1.27885140654971,2.13057216337957,2.78383775922633,3.33377432020621,3.47574852130035,76.7617781439864,76.7608374985283,78.4487293394743,79.9533832665758,81.8729457390853,82.9190261812395
0.906444444444444,1.06418547742322,1.27828673570945,2.1290608353458,2.78192149692749,3.33174408869447,3.47389427413291,76.7914418977818,76.7920967962349,78.4797008035475,79.981927218987,81.9005645051241,82.945732202792
0.906666666666667,1.06380169499622,1.27772435562173,2.12755520654526,2.78001195381,3.32972069095565,3.47204610463452,76.8210946798902,76.8233394016812,78.5106570637107,80.0104628576517,81.9281789966421,82.9724364010221
0.906888888888889,1.06341931082507,1.27716425744405,2.12605525246079,2.77810910379391,3.32770410337847,3.47020399404135,76.8507365339811,76.8545653863917,78.5415981859178,80.0389902170423,81.9557892316391,82.9991387848521
0.907111111111111,1.06303832095955,1.27660643238289,2.1245609487171,2.77621292093418,3.32569430246081,3.46836792366735,76.8803675035419,76.8857748215434,78.5725242358051,80.0675093314918,81.9833952280601,83.0258393631898
0.907333333333333,1.06265872146541,1.27605087169337,2.12307227107975,2.77432337941977,3.32369126480909,3.46653787490381,76.9099876318792,76.9169677779679,78.6034352786928,80.0960202351943,82.0109970037953,83.0525381449275
0.907555555555556,1.0622805084242,1.2754975666789,2.12158919545409,2.77244045357273,3.32169496713755,3.46471382921896,76.9395969621195,76.9481443261537,78.6343313795875,80.124522962206,82.0385945766807,83.0792351389429
0.907777777777778,1.06190367793332,1.27494650869087,2.12011169788432,2.77056411784748,3.3197053862678,3.46289576815767,76.9691955372105,76.9793045362481,78.6652126031836,80.1530175464457,82.0661879644979,83.1059303540987
0.908,1.06152822610585,1.27439768912828,2.1186397545525,2.76869434682989,3.31772249912811,3.46108367334097,76.9987833999219,77.0104484780593,78.6960790138656,80.1815040216959,82.0937771849749,83.1326237992422
0.908222222222222,1.06115414907053,1.27385109943745,2.11717334177755,2.76683111523647,3.31574628275281,3.4592775264657,77.0283605928463,77.041576221059,78.7269306757098,80.2099824216029,82.1213622557855,83.1593154832061
0.908444444444444,1.06078144297161,1.27330673111166,2.11571243601425,2.76497439791352,3.31377671428173,3.45747730930411,77.0579271583999,77.0726878343835,78.7577676524861,80.2384527796781,82.14894319455,83.1860054148079
0.908666666666667,1.0604101039689,1.27276457569089,2.1142570138524,2.76312416983639,3.31181377095964,3.4556830037036,77.0874831388243,77.1037833868367,78.7885900076603,80.2669151292982,82.1765200188355,83.2126936028501
0.908888888888889,1.06004012823754,1.2722246247614,2.11280705201572,2.76128040610858,3.30985743013555,3.45389459158614,77.1170285761863,77.1348629468917,78.8193978043953,80.2953695037061,82.2040927461557,83.2393800561202
0.909111111111111,1.05967151196803,1.27168686995548,2.11136252736099,2.75944308196097,3.3079076692622,3.45211205494805,77.1465635123799,77.1659265826929,78.8501911055536,80.3238159360119,82.2316613939715,83.2660647833907
0.909333333333333,1.05930425136614,1.27115130295113,2.10992341687708,2.75761217275103,3.3059644658955,3.4503353758596,77.1760879891263,77.1969743620579,78.8809699736988,80.352254459193,82.2592259796907,83.2927477934193
0.909555555555556,1.0589383426528,1.27061791547172,2.10848969768405,2.755787653962,3.30402779769388,3.4485645364646,77.2056020479756,77.2280063524797,78.9117344710971,80.3806851060953,82.2867865206689,83.3194290949482
0.909777777777778,1.05857378206406,1.27008669928571,2.10706134703219,2.75396950120214,3.3020976424178,3.44679951898008,77.235105730307,77.2590226211287,78.9424846597199,80.4091079094334,82.3143430342089,83.3461086967052
0.91,1.05821056585101,1.26955764620631,2.10563834230116,2.75215769020392,3.30017397792911,3.44504030569588,77.2645990773305,77.2900232348544,78.9732206012449,80.4375229017916,82.3418955375618,83.3727866074027
0.910222222222222,1.0578486902797,1.26903074809122,2.10422066099903,2.75035219682323,3.29825678219051,3.44328687897434,77.294082130087,77.3210082601876,79.0039423570582,80.4659301156247,82.3694440479262,83.3994628357382
0.910444444444444,1.0574881516311,1.26850599684231,2.10280828076141,2.74855299703869,3.29634603326501,3.44153922124993,77.3235549294498,77.3519777633422,79.034649988256,80.4943295832583,82.3969885824492,83.4261373903942
0.910666666666667,1.05712894620091,1.26798338440522,2.10140117935052,2.74676006695071,3.29444170931531,3.43979731502878,77.3530175161251,77.3829318102173,79.0653435556464,80.5227213368895,82.4245291582262,83.4528102800384
0.910888888888889,1.05677107029968,1.26746290276925,2.09999933465437,2.74497338278096,3.29254378860333,3.43806114288852,77.3824699306531,77.4138704663988,79.0960231197508,80.551105408588,82.4520657923012,83.4794815133233
0.911111111111111,1.05641452025258,1.26694454396694,2.09860272468585,2.74319292087144,3.29065224948958,3.43633068747778,77.4119122134089,77.4447937971619,79.1266887408064,80.579481830296,82.479598501667,83.5061510988864
0.911333333333333,1.05605929239942,1.26642830007379,2.09721132758185,2.74141865768382,3.28876707043267,3.43460593151589,77.4413444046032,77.4757018674722,79.1573404787669,80.6078506338296,82.5071273032653,83.5328190453505
0.911555555555556,1.0557053830945,1.26591416320798,2.09582512160239,2.73965056979864,3.28688822998872,3.43288685779251,77.4707665442832,77.5065947419882,79.1879783933051,80.6362118508791,82.534652213987,83.5594853613231
0.911777777777778,1.05535278870664,1.26540212553011,2.09444408512984,2.73788863391465,3.28501570681088,3.43117344916733,77.5001786723338,77.5374724850626,79.218602543814,80.6645655130095,82.5621732506724,83.586150055397
0.912,1.05500150561903,1.26489217924287,2.09306819666796,2.736132826848,3.28314947964873,3.42946568856965,77.5295808284778,77.568335160745,79.249212989409,80.6929116516615,82.5896904301113,83.6128131361499
0.912222222222222,1.05465153022918,1.26438431659077,2.09169743484113,2.73438312553154,3.28128952734774,3.4277635589981,77.5589730522776,77.5991828327827,79.2798097889288,80.7212502981518,82.6172037690433,83.6394746121446
0.912444444444444,1.05430285894889,1.2638785298599,2.09033177839355,2.73263950701415,3.27943582884886,3.42606704352027,77.5883553831351,77.6300155646233,79.310393000938,80.7495814836739,82.6447132841578,83.6661344919291
0.912666666666667,1.05395548820408,1.26337481137752,2.08897120618823,2.73090194845988,3.27758836318777,3.42437612527232,77.6177278602932,77.6608334194162,79.3409626837279,80.7779052392987,82.6722189920945,83.6927927840362
0.912888888888889,1.05360941443487,1.26287315351199,2.08761569720644,2.72917042714744,3.27574710949461,3.42269078745876,77.6470905228368,77.6916364600143,79.3715188953188,80.8062215959752,82.6997209094432,83.719449496984
0.913111111111111,1.05326463409539,1.26237354867231,2.08626523054669,2.72744492046934,3.27391204699328,3.42101101335203,77.6764434096927,77.7224247489759,79.4020616934611,80.8345305845309,82.7272190527442,83.7461046392757
0.913333333333333,1.05292114365379,1.26187598930796,2.08491978542401,2.72572540593126,3.27208315500101,3.41933678629219,77.7057865596314,77.7531983485666,79.4325911356371,80.8628322356726,82.7547134384888,83.7727582193992
0.913555555555556,1.05257893959212,1.26138046790857,2.08357934116913,2.72401186115134,3.27026041292783,3.41766808968657,77.7351200112676,77.7839573207608,79.4631072790627,80.8911265799871,82.7822040831188,83.7994102458282
0.913777777777778,1.05223801840628,1.26088697700368,2.08224387722767,2.72230426385946,3.26844380027603,3.41600490700947,77.7644438030606,77.8147017272436,79.4936101806891,80.9194136479414,82.8096910030272,83.8260607270209
0.914,1.05189837660599,1.26039550916249,2.08091337315941,2.72060259189664,3.2666332966397,3.41434722180182,77.7937579733157,77.8454316294126,79.5240998972038,80.9476934698839,82.8371742145582,83.8527096714208
0.914222222222222,1.05156001071464,1.25990605699348,2.07958780863739,2.71890682321421,3.26482888170416,3.41269501767078,77.8230625601848,77.8761470883793,79.5545764850328,80.9759660760444,82.8646537340075,83.8793570874569
0.914444444444444,1.05122291726933,1.25941861314435,2.07826716344728,2.7172169358733,3.26303053524553,3.41104827828957,77.8523576016671,77.9068481649712,79.5850400003419,81.0042314965351,82.8921295776221,83.9060029835426
0.914666666666667,1.05088709282071,1.25893317030159,2.07695141748653,2.71553290804406,3.26123823713024,3.40940698739703,77.8816431356098,77.9375349197331,79.615490499038,81.0324897613512,82.9196017616014,83.9326473680773
0.914888888888889,1.05055253393301,1.25844972119031,2.07564055076361,2.71385471800506,3.25945196731445,3.40777112879732,77.9109191997095,77.9682074129292,79.6459280367712,81.0607409003711,82.9470703020961,83.9592902494449
0.915111111111111,1.05021923718388,1.25796825857395,2.07433454339726,2.71218234414258,3.25767170584364,3.40614068635964,77.940185831512,77.9988657045444,79.6763526689358,81.0889849433575,82.9745352152093,83.9859316360148
0.915333333333333,1.04988719916438,1.25748877525402,2.07303337561577,2.71051576494997,3.2558974328521,3.40451564401785,77.969443068414,78.0295098542863,79.7067644506719,81.1172219199575,83.0019965169966,84.0125715361416
0.915555555555556,1.04955641647892,1.25701126406989,2.07173702775619,2.70885495902702,3.25412912856243,3.40289598577022,77.9986909476632,78.0601399215863,79.7371634368672,81.1454518597036,83.029454223466,84.039209958165
0.915777777777778,1.04922688574519,1.2565357178985,2.07044548026363,2.70719990507928,3.25236677328509,3.40128169567908,78.0279295063598,78.090755965602,79.7675496821581,81.173674792014,83.0569083505779,84.0658469104098
0.916,1.04889860359405,1.25606212965412,2.06915871369047,2.70555058191743,3.25061034741787,3.39967275787049,78.0571587814563,78.1213580452183,79.7979232409317,81.2018907461934,83.0843589142461,84.0924824011864
0.916222222222222,1.04857156666957,1.25559049228812,2.06787670869575,2.70390696845668,3.24885983144549,3.398069156534,78.0863788097591,78.1519462190489,79.8282841673263,81.2300997514332,83.111805930337,84.1191164387901
0.916444444444444,1.04824577162884,1.2551207987887,2.06659944604428,2.70226904371605,3.24711520593905,3.39647087592225,78.1155896279291,78.1825205454383,79.8586325152343,81.2583018368126,83.1392494146705,84.1457490315016
0.916666666666667,1.04792121514202,1.25465304218068,2.06532690660609,2.70063678681783,3.24537645155562,3.39487790035074,78.1447912724818,78.2130810824633,79.888968338302,81.2864970312985,83.1666893830196,84.1723801875869
0.916888888888889,1.04759789389224,1.25418721552526,2.06405907135563,2.69901017698694,3.24364354903777,3.3932902141975,78.173983779789,78.2436278879343,79.9192916899324,81.3146853637468,83.1941258511111,84.199009915297
0.917111111111111,1.0472758045755,1.25372331191975,2.0627959213711,2.69738919355025,3.24191647921306,3.39170780190276,78.2031671860789,78.2741610193971,79.949602623286,81.3428668629023,83.2215588346256,84.2256382228686
0.917333333333333,1.04695494390066,1.25326132449734,2.06153743783371,2.69577381593605,3.24019522299363,3.39013064796871,78.2323415274371,78.3046805341345,79.9799011912822,81.3710415573998,83.2489883491975,84.2522651185236
0.917555555555556,1.04663530858936,1.25280124642691,2.06028360202706,2.69416402367337,3.23847976137573,3.38855873695913,78.2615068398072,78.3351864891677,80.0101874466009,81.3992094757641,83.2764144104152,84.2788906104689
0.917777777777778,1.04631689537598,1.25234307091274,2.05903439533637,2.69255979639141,3.23677007543925,3.38699205349914,78.2906631589915,78.3656789412579,80.0404614416837,81.4273706464111,83.3038370338216,84.3055147068971
0.918,1.04599970100752,1.25188679119431,2.05778979924788,2.69096111381893,3.23506614634728,3.38543058227489,78.3198105206522,78.3961579469077,80.0707232287357,81.455525097648,83.3312562349138,84.3321374159861
0.918222222222222,1.04568372224363,1.25143240054607,2.0565497953481,2.68936795578365,3.23336795534568,3.38387430803326,78.3489489603112,78.4266235623629,80.100972859726,81.4836728576737,83.3586720291437,84.3587587458991
0.918444444444444,1.04536895585649,1.25097989227724,2.05531436532323,2.68778030221171,3.23167548376262,3.38232321558163,78.3780785133518,78.4570758436136,80.1312103863903,81.5118139545799,83.386084431918,84.3853787047846
0.918666666666667,1.04505539863072,1.25052925973146,2.05408349095834,2.68619813312692,3.22998871300808,3.38077728978741,78.4071992150186,78.4875148463961,80.1614358602312,81.5399484163512,83.4134934585983,84.4119973007767
0.918888888888889,1.04474304736343,1.25008049628676,2.05285715413692,2.68462142865037,3.22830762457353,3.37923651557798,78.436311100419,78.5179406261942,80.1916493325201,81.5680762708656,83.4408991245011,84.4386145419948
0.919111111111111,1.04443189886406,1.2496335953552,2.05163533684005,2.68305016899976,3.2266322000314,3.37770087794026,78.465414204523,78.5483532382405,80.2218508542983,81.5961975458952,83.4683014448987,84.4652304365437
0.919333333333333,1.0441219499544,1.2491885503827,2.05041802114586,2.68148433448881,3.22496242103471,3.37617036192047,78.4945085621646,78.5787527375182,80.2520404763785,81.6243122691068,83.4957004350183,84.4918449925137
